name,type,start_time,duration,"data"
"Async Serial","data",0.00001968,0.00098944,"o"
"Async Serial","data",0.00106144,0.00098944,"n"
"Async Serial","data",0.0021032,0.00098944,"'"
"Async Serial","data",0.0031448,0.00098944,"t"
"Async Serial","data",0.00418656,0.00098944," "
"Async Serial","data",0.00522816,0.00098944,"t"
"Async Serial","data",0.00626976,0.00098944,"h"
"Async Serial","data",0.00731136,0.00098944,"i"
"Async Serial","data",0.00835312,0.00098944,"n"
"Async Serial","data",0.00939488,0.00098944,"k"
"Async Serial","data",0.01043648,0.00098944," "
"Async Serial","data",0.01147824,0.00098944,"h"
"Async Serial","data",0.01251984,0.00098944,"e"
"Async Serial","data",0.0135616,0.00098944," "
"Async Serial","data",0.0146032,0.00098944,"m"
"Async Serial","data",0.01564496,0.00098944,"a"
"Async Serial","data",0.0166864,0.00098944,"k"
"Async Serial","data",0.01772816,0.00098944,"e"
"Async Serial","data",0.01877008,0.00098944,"s"
"Async Serial","data",0.01981152,0.00098944," "
"Async Serial","data",0.02085328,0.00098944,"a"
"Async Serial","data",0.02189488,0.00098944,"n"
"Async Serial","data",0.02293632,0.00098944,"y"
"Async Serial","data",0.02397792,0.00098944," "
"Async Serial","data",0.02501968,0.00098944,"c"
"Async Serial","data",0.02606128,0.00098944,"l"
"Async Serial","data",0.02710288,0.00098944,"a"
"Async Serial","data",0.02814432,0.00098944,"i"
"Async Serial","data",0.02918592,0.00098944,"m"
"Async Serial","data",0.03022768,0.00098944,"s"
"Async Serial","data",0.03126928,0.00098944," "
"Async Serial","data",0.03231104,0.00098944,"o"
"Async Serial","data",0.03335264,0.00098944,"f"
"Async Serial","data",0.03439424,0.00098944,""
"Async Serial","data",0.03543568,0.00098944,"
"
"Async Serial","data",0.0364776,0.00098944,"t"
"Async Serial","data",0.0375192,0.00098944,"h"
"Async Serial","data",0.0385608,0.00098944,"a"
"Async Serial","data",0.03960224,0.00098944,"t"
"Async Serial","data",0.04064368,0.00098944," "
"Async Serial","data",0.04168528,0.00098944,"k"
"Async Serial","data",0.04272688,0.00098944,"i"
"Async Serial","data",0.04376864,0.00098944,"n"
"Async Serial","data",0.04481024,0.00098944,"d"
"Async Serial","data",0.045852,0.00098944,"."
"Async Serial","data",0.0468936,0.00098944," "
"Async Serial","data",0.04793536,0.00098944," "
"Async Serial","data",0.04897696,0.00098944,"B"
"Async Serial","data",0.05001872,0.00098944,"u"
"Async Serial","data",0.05106016,0.00098944,"t"
"Async Serial","data",0.0521016,0.00098944," "
"Async Serial","data",0.0531432,0.00098944,"I"
"Async Serial","data",0.0541848,0.00098944," "
"Async Serial","data",0.0552264,0.00098944,"d"
"Async Serial","data",0.056268,0.00098944,"o"
"Async Serial","data",0.0573096,0.00098944," "
"Async Serial","data",0.0583512,0.00098944,"b"
"Async Serial","data",0.0593928,0.00098944,"e"
"Async Serial","data",0.06043456,0.00098944,"l"
"Async Serial","data",0.06147632,0.00098944,"i"
"Async Serial","data",0.06251808,0.00098944,"e"
"Async Serial","data",0.06355984,0.00098944,"v"
"Async Serial","data",0.0646016,0.00098944,"e"
"Async Serial","data",0.0656432,0.00098944," "
"Async Serial","data",0.06668496,0.00098944,"h"
"Async Serial","data",0.06772672,0.00098944,"e"
"Async Serial","data",0.06876848,0.00098944," "
"Async Serial","data",0.06980992,0.00098944,"h"
"Async Serial","data",0.07085136,0.00098944,"a"
"Async Serial","data",0.07189296,0.00098944,"s"
"Async Serial","data",0.07293472,0.00098944," "
"Async Serial","data",0.07397632,0.00098944,"g"
"Async Serial","data",0.07501808,0.00098944,"o"
"Async Serial","data",0.07605968,0.00098944,"t"
"Async Serial","data",0.07710144,0.00098944," "
"Async Serial","data",0.07814304,0.00098944,"s"
"Async Serial","data",0.07918464,0.00098944,"o"
"Async Serial","data",0.0802264,0.00098944,"m"
"Async Serial","data",0.081268,0.00098944,"e"
"Async Serial","data",0.08230944,0.00098944,"t"
"Async Serial","data",0.0833512,0.00098944,"h"
"Async Serial","data",0.0843928,0.00098944,"i"
"Async Serial","data",0.0854344,0.00098944,"n"
"Async Serial","data",0.08647584,0.00098944,"g"
"Async Serial","data",0.08751712,0.00098944," "
"Async Serial","data",0.08855856,0.00098944,"n"
"Async Serial","data",0.08960016,0.00098944,"e"
"Async Serial","data",0.09064192,0.00098944,"w"
"Async Serial","data",0.09168368,0.00098944,"."
"Async Serial","data",0.09272528,0.00098944,""""
"Async Serial","data",0.09376688,0.00098944,""
"Async Serial","data",0.09480864,0.00098944,"
"
"Async Serial","data",0.09585024,0.00098944,""
"Async Serial","data",0.09689184,0.00098944,"
"
"Async Serial","data",0.09793344,0.00098944,""""
"Async Serial","data",0.09897504,0.00098944,"T"
"Async Serial","data",0.10001648,0.00098944,"h"
"Async Serial","data",0.10105824,0.00098944,"e"
"Async Serial","data",0.10209984,0.00098944,"n"
"Async Serial","data",0.10314144,0.00098944," "
"Async Serial","data",0.10418304,0.00098944,"f"
"Async Serial","data",0.1052248,0.00098944,"o"
"Async Serial","data",0.10626608,0.00098944,"r"
"Async Serial","data",0.10730784,0.00098944," "
"Async Serial","data",0.10834944,0.00098944,"H"
"Async Serial","data",0.10939104,0.00098944,"e"
"Async Serial","data",0.11043248,0.00098944,"a"
"Async Serial","data",0.11147392,0.00098944,"v"
"Async Serial","data",0.11251552,0.00098944,"e"
"Async Serial","data",0.11355712,0.00098944,"n"
"Async Serial","data",0.11459872,0.00098944,"'"
"Async Serial","data",0.11564048,0.00098944,"s"
"Async Serial","data",0.11668208,0.00098944," "
"Async Serial","data",0.117724,0.00098944,"s"
"Async Serial","data",0.1187656,0.00098944,"a"
"Async Serial","data",0.11980736,0.00098944,"k"
"Async Serial","data",0.12084896,0.00098944,"e"
"Async Serial","data",0.12189056,0.00098944,","
"Async Serial","data",0.12293216,0.00098944," "
"Async Serial","data",0.12397408,0.00098944,"m"
"Async Serial","data",0.12501536,0.00098944,"a"
"Async Serial","data",0.12605712,0.00098944,"n"
"Async Serial","data",0.12709856,0.00098944,","
"Async Serial","data",0.12814032,0.00098944," "
"Async Serial","data",0.12918208,0.00098944,"w"
"Async Serial","data",0.13022352,0.00098944,"r"
"Async Serial","data",0.13126496,0.00098944,"i"
"Async Serial","data",0.13230672,0.00098944,"t"
"Async Serial","data",0.13334848,0.00098944,"e"
"Async Serial","data",0.1343904,0.00098944," "
"Async Serial","data",0.135432,0.00098944,"i"
"Async Serial","data",0.13647376,0.00098944,"t"
"Async Serial","data",0.13751536,0.00098944," "
"Async Serial","data",0.13855696,0.00098944,"u"
"Async Serial","data",0.13959856,0.00098944,"p"
"Async Serial","data",0.14064032,0.00098944,"!"
"Async Serial","data",0.14168176,0.00098944,""""
"Async Serial","data",0.14272336,0.00098944,""
"Async Serial","data",0.1437648,0.00098944,"
"
"Async Serial","data",0.14480624,0.00098944,""
"Async Serial","data",0.14584752,0.00098944,"
"
"Async Serial","data",0.14688912,0.00098944,""""
"Async Serial","data",0.14793056,0.00098944,"I"
"Async Serial","data",0.14897216,0.00098944,"'"
"Async Serial","data",0.15001376,0.00098944,"m"
"Async Serial","data",0.15105552,0.00098944," "
"Async Serial","data",0.15209712,0.00098944,"l"
"Async Serial","data",0.15313904,0.00098944,"o"
"Async Serial","data",0.1541808,0.00098944,"n"
"Async Serial","data",0.15522208,0.00098944,"g"
"Async Serial","data",0.15626368,0.00098944,"i"
"Async Serial","data",0.15730528,0.00098944,"n"
"Async Serial","data",0.15834688,0.00098944,"g"
"Async Serial","data",0.15938848,0.00098944," "
"Async Serial","data",0.16042976,0.00098944,"t"
"Async Serial","data",0.1614712,0.00098944,"o"
"Async Serial","data",0.16251264,0.00098944,","
"Async Serial","data",0.16355424,0.00098944," "
"Async Serial","data",0.16459568,0.00098944,"b"
"Async Serial","data",0.16563744,0.00098944,"u"
"Async Serial","data",0.16667904,0.00098944,"t"
"Async Serial","data",0.16772064,0.00098944," "
"Async Serial","data",0.16876224,0.00098944,"a"
"Async Serial","data",0.169804,0.00098944,"l"
"Async Serial","data",0.17084576,0.00098944,"l"
"Async Serial","data",0.17188752,0.00098944," "
"Async Serial","data",0.17292928,0.00098944,"I"
"Async Serial","data",0.17397088,0.00098944," "
"Async Serial","data",0.17501232,0.00098944,"k"
"Async Serial","data",0.17605392,0.00098944,"n"
"Async Serial","data",0.17709536,0.00098944,"o"
"Async Serial","data",0.17813712,0.00098944,"w"
"Async Serial","data",0.17917888,0.00098944," "
"Async Serial","data",0.18022016,0.00098944,"h"
"Async Serial","data",0.18126176,0.00098944,"e"
"Async Serial","data",0.18230336,0.00098944," "
"Async Serial","data",0.18334512,0.00098944,"g"
"Async Serial","data",0.18438672,0.00098944,"a"
"Async Serial","data",0.18542848,0.00098944,"v"
"Async Serial","data",0.18647008,0.00098944,"e"
"Async Serial","data",0.18751168,0.00098944," "
"Async Serial","data",0.18855328,0.00098944,"m"
"Async Serial","data",0.18959504,0.00098944,"e"
"Async Serial","data",0.1906368,0.00098944," "
"Async Serial","data",0.19167856,0.00098944,"i"
"Async Serial","data",0.19272016,0.00098944,"n"
"Async Serial","data",0.19376176,0.00098944," "
"Async Serial","data",0.19480336,0.00098944,"c"
"Async Serial","data",0.19584464,0.00098944,"o"
"Async Serial","data",0.19688608,0.00098944,"n"
"Async Serial","data",0.19792784,0.00098944,"f"
"Async Serial","data",0.19896928,0.00098944,"i"
"Async Serial","data",0.20001104,0.00098944,"d"
"Async Serial","data",0.2010528,0.00098944,"e"
"Async Serial","data",0.20209472,0.00098944,"n"
"Async Serial","data",0.20313632,0.00098944,"c"
"Async Serial","data",0.20417776,0.00098944,"e"
"Async Serial","data",0.2052192,0.00098944," "
"Async Serial","data",0.20626064,0.00098944,"a"
"Async Serial","data",0.2073024,0.00098944,"n"
"Async Serial","data",0.208344,0.00098944,"d"
"Async Serial","data",0.20938544,0.00098944," "
"Async Serial","data",0.2104272,0.00098944,"o"
"Async Serial","data",0.2114688,0.00098944,"n"
"Async Serial","data",0.21251056,0.00098944,""
"Async Serial","data",0.21355216,0.00098944,"
"
"Async Serial","data",0.21459392,0.00098944,"c"
"Async Serial","data",0.21563552,0.00098944,"o"
"Async Serial","data",0.21667728,0.00098944,"n"
"Async Serial","data",0.21771888,0.00098944,"d"
"Async Serial","data",0.21876064,0.00098944,"i"
"Async Serial","data",0.21980224,0.00098944,"t"
"Async Serial","data",0.220844,0.00098944,"i"
"Async Serial","data",0.2218856,0.00098944,"o"
"Async Serial","data",0.2229272,0.00098944,"n"
"Async Serial","data",0.22396848,0.00098944," "
"Async Serial","data",0.22500992,0.00098944,"t"
"Async Serial","data",0.22605152,0.00098944,"h"
"Async Serial","data",0.22709328,0.00098944,"a"
"Async Serial","data",0.22813472,0.00098944,"t"
"Async Serial","data",0.22917632,0.00098944," "
"Async Serial","data",0.23021792,0.00098944,"I"
"Async Serial","data",0.23125968,0.00098944," "
"Async Serial","data",0.23230128,0.00098944,"d"
"Async Serial","data",0.23334336,0.00098944,"i"
"Async Serial","data",0.23438496,0.00098944,"d"
"Async Serial","data",0.23542656,0.00098944,"n"
"Async Serial","data",0.23646848,0.00098944,"'"
"Async Serial","data",0.23751024,0.00098944,"t"
"Async Serial","data",0.23855184,0.00098944,"."
"Async Serial","data",0.2395936,0.00098944,""""
"Async Serial","data",0.24063504,0.00098944," "
"Async Serial","data",0.2416768,0.00098944," "
"Async Serial","data",0.24271856,0.00098944,"I"
"Async Serial","data",0.24376032,0.00098944," "
"Async Serial","data",0.24480192,0.00098944,"c"
"Async Serial","data",0.24584352,0.00098944,"o"
"Async Serial","data",0.24688512,0.00098944,"n"
"Async Serial","data",0.24792656,0.00098944,"d"
"Async Serial","data",0.24896816,0.00098944,"e"
"Async Serial","data",0.2500096,0.00098944,"n"
"Async Serial","data",0.2510512,0.00098944,"s"
"Async Serial","data",0.2520928,0.00098944,"e"
"Async Serial","data",0.25313424,0.00098944,"d"
"Async Serial","data",0.25417584,0.00098944," "
"Async Serial","data",0.2552176,0.00098944,"i"
"Async Serial","data",0.2562592,0.00098944,"n"
"Async Serial","data",0.25730096,0.00098944,"t"
"Async Serial","data",0.25834256,0.00098944,"o"
"Async Serial","data",0.25938432,0.00098944," "
"Async Serial","data",0.26042592,0.00098944,"a"
"Async Serial","data",0.2614672,0.00098944," "
"Async Serial","data",0.26250896,0.00098944,"f"
"Async Serial","data",0.2635504,0.00098944,"e"
"Async Serial","data",0.26459184,0.00098944,"w"
"Async Serial","data",0.26563328,0.00098944," "
"Async Serial","data",0.26667488,0.00098944,"s"
"Async Serial","data",0.26771616,0.00098944,"e"
"Async Serial","data",0.26875808,0.00098944,"n"
"Async Serial","data",0.26979968,0.00098944,"t"
"Async Serial","data",0.27084144,0.00098944,"e"
"Async Serial","data",0.27188304,0.00098944,"n"
"Async Serial","data",0.27292464,0.00098944,"c"
"Async Serial","data",0.27396608,0.00098944,"e"
"Async Serial","data",0.27500784,0.00098944,"s"
"Async Serial","data",0.27604944,0.00098944," "
"Async Serial","data",0.27709104,0.00098944,"t"
"Async Serial","data",0.2781328,0.00098944,"h"
"Async Serial","data",0.27917456,0.00098944,"e"
"Async Serial","data",0.28021616,0.00098944,""
"Async Serial","data",0.28125776,0.00098944,"
"
"Async Serial","data",0.2822992,0.00098944,"P"
"Async Serial","data",0.28334064,0.00098944,"r"
"Async Serial","data",0.28438224,0.00098944,"o"
"Async Serial","data",0.285424,0.00098944,"f"
"Async Serial","data",0.2864656,0.00098944,"e"
"Async Serial","data",0.2875072,0.00098944,"s"
"Async Serial","data",0.28854864,0.00098944,"s"
"Async Serial","data",0.28959024,0.00098944,"o"
"Async Serial","data",0.29063184,0.00098944,"r"
"Async Serial","data",0.2916736,0.00098944,"'"
"Async Serial","data",0.2927152,0.00098944,"s"
"Async Serial","data",0.2937568,0.00098944," "
"Async Serial","data",0.29479856,0.00098944,"n"
"Async Serial","data",0.29584032,0.00098944,"a"
"Async Serial","data",0.29688192,0.00098944,"r"
"Async Serial","data",0.29792352,0.00098944,"r"
"Async Serial","data",0.29896528,0.00098944,"a"
"Async Serial","data",0.30000704,0.00098944,"t"
"Async Serial","data",0.30104864,0.00098944,"i"
"Async Serial","data",0.30209024,0.00098944,"v"
"Async Serial","data",0.303132,0.00098944,"e"
"Async Serial","data",0.3041736,0.00098944,"."
"Async Serial","data",0.3052152,0.00098944," "
"Async Serial","data",0.3062568,0.00098944," "
"Async Serial","data",0.30729824,0.00098944,""""
"Async Serial","data",0.30833968,0.00098944,"T"
"Async Serial","data",0.30938128,0.00098944,"h"
"Async Serial","data",0.31042304,0.00098944,"a"
"Async Serial","data",0.3114648,0.00098944,"t"
"Async Serial","data",0.3125064,0.00098944,"'"
"Async Serial","data",0.313548,0.00098944,"s"
"Async Serial","data",0.3145896,0.00098944," "
"Async Serial","data",0.31563136,0.00098944,"h"
"Async Serial","data",0.31667312,0.00098944,"o"
"Async Serial","data",0.31771488,0.00098944,"w"
"Async Serial","data",0.31875632,0.00098944," "
"Async Serial","data",0.31979792,0.00098944,"i"
"Async Serial","data",0.32083952,0.00098944,"t"
"Async Serial","data",0.32188112,0.00098944," "
"Async Serial","data",0.32292272,0.00098944,"s"
"Async Serial","data",0.32396448,0.00098944,"t"
"Async Serial","data",0.32500608,0.00098944,"a"
"Async Serial","data",0.32604784,0.00098944,"n"
"Async Serial","data",0.3270896,0.00098944,"d"
"Async Serial","data",0.3281312,0.00098944,"s"
"Async Serial","data",0.3291728,0.00098944,"."
"Async Serial","data",0.3302144,0.00098944,""""
"Async Serial","data",0.33125616,0.00098944,""
"Async Serial","data",0.33229776,0.00098944,"
"
"Async Serial","data",0.33333936,0.00098944,""
"Async Serial","data",0.33438112,0.00098944,"
"
"Async Serial","data",0.33542272,0.00098944,"M"
"Async Serial","data",0.33646448,0.00098944,"c"
"Async Serial","data",0.33750624,0.00098944,"A"
"Async Serial","data",0.33854784,0.00098944,"r"
"Async Serial","data",0.33958944,0.00098944,"d"
"Async Serial","data",0.34063088,0.00098944,"l"
"Async Serial","data",0.34167232,0.00098944,"e"
"Async Serial","data",0.34271408,0.00098944," "
"Async Serial","data",0.34375584,0.00098944,"l"
"Async Serial","data",0.3447976,0.00098944,"o"
"Async Serial","data",0.34583936,0.00098944,"o"
"Async Serial","data",0.34688112,0.00098944,"k"
"Async Serial","data",0.34792288,0.00098944,"e"
"Async Serial","data",0.34896432,0.00098944,"d"
"Async Serial","data",0.35000608,0.00098944," "
"Async Serial","data",0.35104752,0.00098944,"d"
"Async Serial","data",0.35208912,0.00098944,"e"
"Async Serial","data",0.35313072,0.00098944,"e"
"Async Serial","data",0.35417232,0.00098944,"p"
"Async Serial","data",0.35521392,0.00098944,"l"
"Async Serial","data",0.35625536,0.00098944,"y"
"Async Serial","data",0.3572968,0.00098944," "
"Async Serial","data",0.35833856,0.00098944,"i"
"Async Serial","data",0.35938016,0.00098944,"n"
"Async Serial","data",0.36042176,0.00098944,"c"
"Async Serial","data",0.36146352,0.00098944,"r"
"Async Serial","data",0.36250512,0.00098944,"e"
"Async Serial","data",0.36354688,0.00098944,"d"
"Async Serial","data",0.36458848,0.00098944,"u"
"Async Serial","data",0.36562992,0.00098944,"l"
"Async Serial","data",0.36667168,0.00098944,"o"
"Async Serial","data",0.36771328,0.00098944,"u"
"Async Serial","data",0.36875488,0.00098944,"s"
"Async Serial","data",0.36979648,0.00098944,"."
"Async Serial","data",0.37083824,0.00098944,""
"Async Serial","data",0.37187968,0.00098944,"
"
"Async Serial","data",0.37292128,0.00098944,""
"Async Serial","data",0.37396304,0.00098944,"
"
"Async Serial","data",0.37500464,0.00098944,""""
"Async Serial","data",0.3760464,0.00098944,"W"
"Async Serial","data",0.37708816,0.00098944,"e"
"Async Serial","data",0.37812992,0.00098944,"l"
"Async Serial","data",0.37917152,0.00098944,"l"
"Async Serial","data",0.38021296,0.00098944,","
"Async Serial","data",0.3812544,0.00098944," "
"Async Serial","data",0.38229584,0.00098944,"M"
"Async Serial","data",0.38333744,0.00098944,"r"
"Async Serial","data",0.38437888,0.00098944,"."
"Async Serial","data",0.38542048,0.00098944," "
"Async Serial","data",0.38646176,0.00098944,"M"
"Async Serial","data",0.38750336,0.00098944,"a"
"Async Serial","data",0.3885448,0.00098944,"l"
"Async Serial","data",0.38958672,0.00098944,"o"
"Async Serial","data",0.39062832,0.00098944,"n"
"Async Serial","data",0.3916704,0.00098944,"e"
"Async Serial","data",0.392712,0.00098944,","
"Async Serial","data",0.39375344,0.00098944,""""
"Async Serial","data",0.39479504,0.00098944," "
"Async Serial","data",0.39583664,0.00098944,"h"
"Async Serial","data",0.39687824,0.00098944,"e"
"Async Serial","data",0.39791984,0.00098944," "
"Async Serial","data",0.39896144,0.00098944,"s"
"Async Serial","data",0.40000304,0.00098944,"a"
"Async Serial","data",0.40104464,0.00098944,"i"
"Async Serial","data",0.40208656,0.00098944,"d"
"Async Serial","data",0.40312816,0.00098944," "
"Async Serial","data",0.40417024,0.00098944,"a"
"Async Serial","data",0.40521184,0.00098944,"t"
"Async Serial","data",0.40625344,0.00098944," "
"Async Serial","data",0.40729504,0.00098944,"l"
"Async Serial","data",0.40833664,0.00098944,"a"
"Async Serial","data",0.40937824,0.00098944,"s"
"Async Serial","data",0.41041984,0.00098944,"t"
"Async Serial","data",0.41146144,0.00098944,","
"Async Serial","data",0.4125032,0.00098944," "
"Async Serial","data",0.4135448,0.00098944,""""
"Async Serial","data",0.41458656,0.00098944,"a"
"Async Serial","data",0.41562832,0.00098944,"b"
"Async Serial","data",0.41666992,0.00098944,"o"
"Async Serial","data",0.41771168,0.00098944,"u"
"Async Serial","data",0.41875328,0.00098944,"t"
"Async Serial","data",0.41979504,0.00098944," "
"Async Serial","data",0.42083664,0.00098944,"t"
"Async Serial","data",0.4218784,0.00098944,"h"
"Async Serial","data",0.42292,0.00098944,"i"
"Async Serial","data",0.42396176,0.00098944,"s"
"Async Serial","data",0.42500336,0.00098944," "
"Async Serial","data",0.42604496,0.00098944,"s"
"Async Serial","data",0.42708672,0.00098944,"c"
"Async Serial","data",0.42812832,0.00098944,"i"
"Async Serial","data",0.42917008,0.00098944,"e"
"Async Serial","data",0.43021168,0.00098944,"n"
"Async Serial","data",0.43125344,0.00098944,"t"
"Async Serial","data",0.43229504,0.00098944,"i"
"Async Serial","data",0.4333368,0.00098944,"f"
